# freq, amb_real amb_imag hot_real hot_imag open_real open_imag short_real short_imag lna_real lna_imag rig_s11_real rig_s11_imag rig_s12_real rig_s12_imag rig_s22_real rig_s22_imag
4.000244100000e+01 -2.393823440263e-01 -2.367269215607e-01 -1.313951742047e-01 -2.844409511680e-02 -1.191732931792e+00 -3.556788402965e-01 5.441350528192e-01 -2.381918519238e-01 -4.323220992926e-03 2.263331812030e-02 1.130657677143e+00 -2.161420134283e-01 1.040241849017e-01 -4.682955526085e-01 -4.813428615412e-01 1.271079545321e+00
4.005127000000e+01 -2.368871295774e-01 -2.341182542258e-01 -1.297153751462e-01 -2.838256082825e-02 -1.194169607987e+00 -3.323087256296e-01 5.436821340822e-01 -2.438304596489e-01 -4.332234884645e-03 2.265611573211e-02 1.118440440021e+00 -2.128749602235e-01 1.126517848212e-01 -4.652774482786e-01 -4.789786658808e-01 1.257239053062e+00
4.010009800000e+01 -2.343613424265e-01 -2.314841730746e-01 -1.280215814138e-01 -2.831385854708e-02 -1.196130640315e+00 -3.090035574909e-01 5.432451810785e-01 -2.494373192669e-01 -4.340924210220e-03 2.267865495493e-02 1.106098500157e+00 -2.095971194448e-01 1.213848348435e-01 -4.622504712583e-01 -4.765026015211e-01 1.243260159253e+00
4.014892600000e+01 -2.318062428288e-01 -2.288260073869e-01 -1.263146486833e-01 -2.823806564908e-02 -1.197622003401e+00 -2.857728622784e-01 5.428247440478e-01 -2.550184342615e-01 -4.349287923602e-03 2.270093483284e-02 1.093638097213e+00 -2.063100944544e-01 1.302190924160e-01 -4.592156038900e-01 -4.739164487422e-01 1.229149878644e+00
4.019775400000e+01 -2.292231493661e-01 -2.261451422005e-01 -1.245954668253e-01 -2.815526478783e-02 -1.198649818136e+00 -2.626263312170e-01 5.424210547710e-01 -2.605796939602e-01 -4.357324840128e-03 2.272295397093e-02 1.081065735388e+00 -2.030155447066e-01 1.391501085820e-01 -4.561738907975e-01 -4.712221002171e-01 1.214915525110e+00
4.024658200000e+01 -2.266133870960e-01 -2.234429640273e-01 -1.228649249269e-01 -2.806554261143e-02 -1.199220391360e+00 -2.395733381960e-01 5.420340185780e-01 -2.661269737141e-01 -4.365033824714e-03 2.274471100489e-02 1.068387929228e+00 -1.997151176453e-01 1.481734072298e-01 -4.531263764244e-01 -4.684215117590e-01 1.200564423720e+00
4.029541000000e+01 -2.239782864804e-01 -2.207208597332e-01 -1.211239105732e-01 -2.796898966232e-02 -1.199340200801e+00 -2.166229375186e-01 5.416632164970e-01 -2.716661193681e-01 -4.372413792106e-03 2.276620460116e-02 1.055611198333e+00 -1.964104474092e-01 1.572844887687e-01 -4.500741042855e-01 -4.655167002736e-01 1.186103904827e+00
4.034423800000e+01 -2.213191823154e-01 -2.179802154247e-01 -1.193733091355e-01 -2.786570027428e-02 -1.199015880082e+00 -1.937838623538e-01 5.413079081028e-01 -2.772029318946e-01 -4.379463707136e-03 2.278743345712e-02 1.042742062117e+00 -1.931031535611e-01 1.664788338041e-01 -4.470181162221e-01 -4.625097416601e-01 1.171541298194e+00
4.039306600000e+01 -2.186374126656e-01 -2.152224153466e-01 -1.176140030679e-01 -2.775577246667e-02 -1.198254203855e+00 -1.710645238790e-01 5.409670350532e-01 -2.827431522223e-01 -4.386182584950e-03 2.280839630113e-02 1.029787034599e+00 -1.897948398428e-01 1.757519068095e-01 -4.439594516617e-01 -4.594027686625e-01 1.156883927170e+00
4.044189500000e+01 -2.159342622322e-01 -2.124487838347e-01 -1.158468349474e-01 -2.763930538449e-02 -1.197062044306e+00 -1.484725497883e-01 5.406392187108e-01 -2.882925600713e-01 -4.392569618636e-03 2.282909231381e-02 1.016752351531e+00 -1.864870252297e-01 1.850993519514e-01 -4.408990841975e-01 -4.561979020541e-01 1.142138800093e+00
4.049072300000e+01 -2.132111831758e-01 -2.096608117753e-01 -1.140727517160e-01 -2.751640886259e-02 -1.195446463117e+00 -1.260166328841e-01 5.403227915951e-01 -2.938565044971e-01 -4.398623663010e-03 2.284951943821e-02 1.003645034726e+00 -1.831814137053e-01 1.945162294776e-01 -4.378381715959e-01 -4.528975129495e-01 1.127313814295e+00
4.053955100000e+01 -2.104694618672e-01 -2.068598146787e-01 -1.122925868331e-01 -2.738718899790e-02 -1.193414550434e+00 -1.037037559210e-01 5.400157626759e-01 -2.994405712149e-01 -4.404344019669e-03 2.286967692305e-02 9.904712851414e-01 -1.798794865941e-01 2.039981680878e-01 -4.347776789904e-01 -4.495038266501e-01 1.112415938376e+00
4.058837900000e+01 -2.077104388781e-01 -2.040471585476e-01 -1.105072042365e-01 -2.725175744333e-02 -1.190973499785e+00 -8.154104688259e-02 5.397158506122e-01 -3.050501142322e-01 -4.409729907142e-03 2.288956362191e-02 9.772375442087e-01 -1.765827724501e-01 2.135406042319e-01 -4.317186288573e-01 -4.460191809155e-01 1.097452412910e+00
4.063720700000e+01 -2.049354528005e-01 -2.012242021940e-01 -1.087174615762e-01 -2.711022897154e-02 -1.188130574232e+00 -5.953531735201e-02 5.394204836789e-01 -3.106903556405e-01 -4.414780595269e-03 2.290917841989e-02 9.639502227673e-01 -1.732927782029e-01 2.231389763919e-01 -4.286620376451e-01 -4.424459589724e-01 1.082430443837e+00
4.068603500000e+01 -2.021458392222e-01 -1.983922962181e-01 -1.069242095746e-01 -2.696272135547e-02 -1.184893092842e+00 -3.769306548853e-02 5.391268071289e-01 -3.163663722387e-01 -4.419495405363e-03 2.292852023376e-02 9.506156962274e-01 -1.700109880891e-01 2.327887286492e-01 -4.256089150747e-01 -4.387865871324e-01 1.067357197041e+00
4.073486300000e+01 -1.993429297125e-01 -1.955527820043e-01 -1.051282913995e-01 -2.680935524700e-02 -1.181268417478e+00 -1.602047957911e-02 5.388316911307e-01 -3.220830825512e-01 -4.423873710363e-03 2.294758801196e-02 9.372402998105e-01 -1.667388626175e-01 2.424853142198e-01 -4.225602634488e-01 -4.350435323807e-01 1.052239793017e+00
4.078369100000e+01 -1.965280508200e-01 -1.927069907355e-01 -1.033305420504e-01 -2.665025405405e-02 -1.177263939946e+00 5.476557857189e-03 5.385317392602e-01 -3.278452342658e-01 -4.427914934968e-03 2.296638073473e-02 9.238303238740e-01 -1.634778375684e-01 2.522241989558e-01 -4.195170769714e-01 -4.312192999399e-01 1.037085301627e+00
4.083252000000e+01 -1.937024651160e-01 -1.898561840018e-01 -1.015317509163e-01 -2.648554038632e-02 -1.172886976088e+00 2.679290009396e-02 5.382232910937e-01 -3.336575116908e-01 -4.431618628154e-03 2.298489779053e-02 9.103917338578e-01 -1.602292566353e-01 2.620010653913e-01 -4.164802789580e-01 -4.273163500918e-01 1.021900425716e+00
4.088134800000e+01 -1.908676019089e-01 -1.870017864937e-01 -9.973280856789e-02 -2.631534953797e-02 -1.168145119892e+00 4.792238854776e-02 5.379024571645e-01 -3.395240469563e-01 -4.434984166795e-03 2.300313746484e-02 8.969312672590e-01 -1.569946363629e-01 2.718110144686e-01 -4.134509698179e-01 -4.233374170423e-01 1.006692740629e+00
4.093017600000e+01 -1.880247090405e-01 -1.841450347359e-01 -9.793448513184e-02 -2.613980911709e-02 -1.163045693733e+00 6.886046662152e-02 5.375650911974e-01 -3.454491229135e-01 -4.438011210884e-03 2.302109921565e-02 8.834547777382e-01 -1.537752660322e-01 2.816497704121e-01 -4.104300532226e-01 -4.192850267616e-01 9.914688231778e-01
4.097900400000e+01 -1.851750832223e-01 -1.812872096477e-01 -9.613757709014e-02 -2.595905229898e-02 -1.157596088211e+00 8.960242357999e-02 5.372068255886e-01 -3.514366874738e-01 -4.440699393293e-03 2.303878215084e-02 8.699683312583e-01 -1.505724732138e-01 2.915128838158e-01 -4.074184843970e-01 -4.151618126493e-01 9.762354902917e-01
4.102783200000e+01 -1.823200113434e-01 -1.784295773250e-01 -9.434286991127e-02 -2.577321438095e-02 -1.151803665482e+00 1.101438264614e-01 5.368230760975e-01 -3.574904619799e-01 -4.443048399152e-03 2.305618541034e-02 8.564779269412e-01 -1.473875562877e-01 3.013959347743e-01 -4.044172072362e-01 -4.109704338820e-01 9.609994836089e-01
4.107666000000e+01 -1.794607695593e-01 -1.755733881832e-01 -9.255113752915e-02 -2.558243265274e-02 -1.145675748896e+00 1.304805131602e-01 5.364090531629e-01 -3.636139316154e-01 -4.445057965916e-03 2.307330816613e-02 8.429894929814e-01 -1.442217836636e-01 3.112945361033e-01 -4.014271536987e-01 -4.067135728861e-01 9.457674648900e-01
4.112548800000e+01 -1.765986223981e-01 -1.727198761234e-01 -9.076314183916e-02 -2.538684626624e-02 -1.139219613117e+00 1.506085851323e-01 5.359597735999e-01 -3.698103363718e-01 -4.446727883414e-03 2.309014962227e-02 8.295088826710e-01 -1.410763930419e-01 3.212043365024e-01 -3.984492432127e-01 -4.023939328082e-01 9.305460115526e-01
4.117431600000e+01 -1.737348218862e-01 -1.698702577250e-01 -8.897963221157e-02 -2.518659610485e-02 -1.132442474727e+00 1.705243997503e-01 5.354700726475e-01 -3.760826625891e-01 -4.448057993886e-03 2.310670901490e-02 8.160418705394e-01 -1.379525907131e-01 3.311210236566e-01 -3.954843820980e-01 -3.980142349827e-01 9.153416123336e-01
4.122314500000e+01 -1.708705480391e-01 -1.670256732664e-01 -8.720130866195e-02 -2.498182041336e-02 -1.125351334947e+00 1.902249635664e-01 5.349346048691e-01 -3.824337659740e-01 -4.449048208804e-03 2.312298594271e-02 8.025938734371e-01 -1.348514876295e-01 3.410405304188e-01 -3.925334027171e-01 -3.935771249636e-01 9.001603524610e-01
4.127197300000e+01 -1.680071426766e-01 -1.641874188926e-01 -8.542896697372e-02 -2.477267153486e-02 -1.117953558603e+00 2.097063146198e-01 5.343479016007e-01 -3.888658424457e-01 -4.449698434734e-03 2.313897903937e-02 7.891710481783e-01 -1.317743523612e-01 3.509582251212e-01 -3.895973043851e-01 -3.890855346646e-01 8.850091527490e-01
4.132080100000e+01 -1.651457566173e-01 -1.613565963123e-01 -8.366327972755e-02 -2.455929061273e-02 -1.110255994699e+00 2.289659347691e-01 5.337043182553e-01 -3.953812018039e-01 -4.450008695007e-03 2.315468797358e-02 7.757786354110e-01 -1.287222294253e-01 3.608701334931e-01 -3.866768902023e-01 -3.845421345342e-01 8.698939000319e-01
4.136962900000e+01 -1.622875835463e-01 -1.585343452528e-01 -8.190494169047e-02 -2.434182414528e-02 -1.102265543720e+00 2.480011225929e-01 5.329980902909e-01 -4.019817430797e-01 -4.449979041629e-03 2.317011210989e-02 7.624220584176e-01 -1.256961932810e-01 3.707721288489e-01 -3.837730085866e-01 -3.799496934231e-01 8.548206876317e-01
4.141845700000e+01 -1.594338005884e-01 -1.557217844727e-01 -8.015463294653e-02 -2.412041970703e-02 -1.093989008796e+00 2.668093900989e-01 5.322233361070e-01 -4.086690783653e-01 -4.449609579017e-03 2.318525084492e-02 7.491066442467e-01 -1.226972840866e-01 3.806601379772e-01 -3.808864921964e-01 -3.753109857972e-01 8.397955005413e-01
4.146728500000e+01 -1.565855675636e-01 -1.529200111153e-01 -7.841301852238e-02 -2.389522581826e-02 -1.085433089427e+00 2.853884535734e-01 5.313740705968e-01 -4.154445280207e-01 -4.448900463955e-03 2.320010360735e-02 7.358376206037e-01 -1.197265072456e-01 3.905301438164e-01 -3.780181574513e-01 -3.706287892614e-01 8.248242119238e-01
4.151611300000e+01 -1.537440262671e-01 -1.501301000911e-01 -7.668074803231e-02 -2.366639181511e-02 -1.076604375756e+00 3.037362242796e-01 5.304442188465e-01 -4.223091165152e-01 -4.447851905551e-03 2.321466985787e-02 7.226201128742e-01 -1.167848329937e-01 4.003781880508e-01 -3.751688040713e-01 -3.659058821020e-01 8.099125797604e-01
4.156494100000e+01 -1.509102997735e-01 -1.473531034893e-01 -7.495845534321e-02 -2.343406772034e-02 -1.067509343374e+00 3.218507990341e-01 5.294276299511e-01 -4.292635689072e-01 -4.446464165170e-03 2.322894908918e-02 7.094591412840e-01 -1.138731960278e-01 4.102003736253e-01 -3.723392146339e-01 -3.611450408507e-01 7.950662436493e-01
4.161377000000e+01 -1.480854340128e-01 -1.445899935799e-01 -7.324672331640e-02 -2.319839925527e-02 -1.058154154452e+00 3.397308144477e-01 5.283180671983e-01 -4.363084531666e-01 -4.444737517529e-03 2.324294110949e-02 6.963593505781e-01 -1.109924365028e-01 4.199930673967e-01 -3.695300968364e-01 -3.563489393105e-01 7.802904199166e-01
4.166259800000e+01 -1.452706283549e-01 -1.418418883528e-01 -7.154622351996e-02 -2.295954708684e-02 -1.048545425333e+00 3.573739774437e-01 5.271093148037e-01 -4.434435989750e-01 -4.442672398997e-03 2.325664490222e-02 6.833260793281e-01 -1.081435350999e-01 4.297521008714e-01 -3.667423127912e-01 -3.515205397908e-01 7.655911077036e-01
4.171142600000e+01 -1.424668878440e-01 -1.391097114616e-01 -6.985750560165e-02 -2.271765773801e-02 -1.038689073204e+00 3.747792527377e-01 5.257950557487e-01 -4.506689617807e-01 -4.440269195317e-03 2.327006034520e-02 6.703637476861e-01 -1.053272587726e-01 4.394739758834e-01 -3.639765334395e-01 -3.466625013343e-01 7.509732704439e-01
4.176025400000e+01 -1.396752542238e-01 -1.363944184147e-01 -6.818113748847e-02 -2.247288270329e-02 -1.028591074229e+00 3.919453836452e-01 5.243689746060e-01 -4.579840465824e-01 -4.437528376005e-03 2.328318705857e-02 6.574769295915e-01 -1.025443971843e-01 4.491550638601e-01 -3.612334687430e-01 -3.417775696314e-01 7.364420452796e-01
4.180908200000e+01 -1.368967474249e-01 -1.336969394023e-01 -6.651766998630e-02 -2.222537353195e-02 -1.018257272064e+00 4.088712510457e-01 5.228247497415e-01 -4.653880509481e-01 -4.434450462334e-03 2.329602469415e-02 6.446700817041e-01 -9.979570322757e-02 4.587918087671e-01 -3.585138095953e-01 -3.368684768622e-01 7.220024372940e-01
4.185791000000e+01 -1.341323650257e-01 -1.310181788884e-01 -6.486763656607e-02 -2.197528170547e-02 -1.007693375829e+00 4.255558637982e-01 5.211560672069e-01 -4.728798653082e-01 -4.431036027195e-03 2.330857293542e-02 6.319475414055e-01 -9.708189290122e-02 4.683807290930e-01 -3.558182274958e-01 -3.319379394472e-01 7.076593172519e-01
4.190673800000e+01 -1.313830817421e-01 -1.283590152332e-01 -6.323155317038e-02 -2.172275851638e-02 -9.969049585973e-01 4.419983492229e-01 5.193566345441e-01 -4.804580738693e-01 -4.427285694947e-03 2.332083149738e-02 6.193135249432e-01 -9.440364522783e-02 4.779184197411e-01 -3.531473742446e-01 -3.269886558379e-01 6.934174195003e-01
4.195556600000e+01 -1.286498489443e-01 -1.257203003459e-01 -6.160991804042e-02 -2.146795494882e-02 -9.858974563721e-01 4.581979436706e-01 5.174201944735e-01 -4.881209561405e-01 -4.423200141257e-03 2.333280012651e-02 6.067721257191e-01 -9.176160221136e-02 4.874015538256e-01 -3.505018816571e-01 -3.220233043494e-01 6.792813400301e-01
4.200439500000e+01 -1.259335387525e-01 -1.231028059866e-01 -6.000317881379e-02 -2.121101627804e-02 -9.746759355862e-01 4.741543074877e-01 5.153404943382e-01 -4.958666485220e-01 -4.418779998984e-03 2.334447883687e-02 5.943270588668e-01 -8.915631586001e-02 4.968270767903e-01 -3.478823079216e-01 -3.170444389525e-01 6.652552486089e-01
4.205322300000e+01 -1.232351657814e-01 -1.205074374689e-01 -5.841186370937e-02 -2.095210304664e-02 -9.632460166861e-01 4.898662136998e-01 5.131114727584e-01 -5.036925108059e-01 -4.414026226937e-03 2.335586695922e-02 5.819826773423e-01 -8.658846089151e-02 5.061914370616e-01 -3.452893514171e-01 -3.120548953406e-01 6.513440339162e-01
4.210205100000e+01 -1.205555529402e-01 -1.179349117486e-01 -5.683638396803e-02 -2.069135937400e-02 -9.516124954971e-01 5.053334996874e-01 5.107270174512e-01 -5.115960813238e-01 -4.408939566513e-03 2.336696457601e-02 5.697424413038e-01 -8.405851465902e-02 5.154917458400e-01 -3.427235285845e-01 -3.070571770282e-01 6.375515784620e-01
4.215087900000e+01 -1.178955539481e-01 -1.153859720759e-01 -5.527716569905e-02 -2.042893385242e-02 -9.397802590674e-01 5.205557462150e-01 5.081811454738e-01 -5.195744479421e-01 -4.403520896754e-03 2.337777155858e-02 5.576099385280e-01 -8.156697145354e-02 5.247250051226e-01 -3.401853888620e-01 -3.020538610218e-01 6.238819086530e-01
4.219970700000e+01 -1.152559971873e-01 -1.128613339757e-01 -5.373461674758e-02 -2.016497419661e-02 -9.277540593049e-01 5.355325980600e-01 5.054679748335e-01 -5.276244102769e-01 -4.397771147016e-03 2.338828780922e-02 5.455886275438e-01 -7.911428892047e-02 5.338883026477e-01 -3.376754605887e-01 -2.970474940559e-01 6.103389052667e-01
4.224853500000e+01 -1.126376853906e-01 -1.103616850839e-01 -5.220912664180e-02 -1.989962713623e-02 -9.155385146721e-01 5.502637555830e-01 5.025817369324e-01 -5.357424846574e-01 -4.391691296741e-03 2.339851326104e-02 5.336818367805e-01 -7.670088824718e-02 5.429788131046e-01 -3.351942508433e-01 -2.920405907199e-01 5.969263024776e-01
4.229736300000e+01 -1.100413953574e-01 -1.078876850143e-01 -5.070106655943e-02 -1.963303831064e-02 -9.031381122803e-01 5.647489665326e-01 4.995167887215e-01 -5.439249096136e-01 -4.385282375212e-03 2.340844787784e-02 5.218927638575e-01 -7.432715438671e-02 5.519937992455e-01 -3.327422453053e-01 -2.870356316405e-01 5.836476870429e-01
4.234619100000e+01 -1.074678776989e-01 -1.054399652546e-01 -4.921078931355e-02 -1.936535216612e-02 -8.905572103667e-01 5.789880181045e-01 4.962676245408e-01 -5.521676518695e-01 -4.378545461292e-03 2.341809165396e-02 5.102244750139e-01 -7.199343631688e-02 5.609306128969e-01 -3.303199081357e-01 -2.820350617210e-01 5.705064976454e-01
4.239502000000e+01 -1.049178046324e-01 -1.030190797929e-01 -4.773859939524e-02 -1.909670634494e-02 -8.777997780922e-01 5.929810133152e-01 4.928288152244e-01 -5.604665833277e-01 -4.371481535155e-03 2.342744480276e-02 4.986796695306e-01 -6.970000078018e-02 5.697868764016e-01 -3.279276331977e-01 -2.770411862522e-01 5.575057596049e-01
4.244384800000e+01 -1.023919782027e-01 -1.006257028394e-01 -4.628487322650e-02 -1.882725361471e-02 -8.648704474219e-01 6.067272223713e-01 4.891953048233e-01 -5.688168070200e-01 -4.364092063368e-03 2.343650699619e-02 4.872616226441e-01 -6.744721966063e-02 5.785597595854e-01 -3.255659393358e-01 -2.720565782293e-01 5.446491466603e-01
4.249267600000e+01 -9.989101674344e-02 -9.826033131919e-02 -4.484987829306e-02 -1.855712875822e-02 -8.517729489089e-01 6.202267950099e-01 4.853619989936e-01 -5.772136844049e-01 -4.356378130563e-03 2.344527851393e-02 4.759727667022e-01 -6.523528852331e-02 5.872470687848e-01 -3.232351763484e-01 -2.670834630620e-01 5.319393831784e-01
4.254150400000e+01 -9.741556413316e-02 -9.592348376528e-02 -4.343389418295e-02 -1.828647047191e-02 -8.385111570781e-01 6.334796023804e-01 4.813240530813e-01 -5.856521644077e-01 -4.348341011138e-03 2.345375947112e-02 4.648156394770e-01 -6.306441571475e-02 5.958465202562e-01 -3.209357215505e-01 -2.621241263432e-01 5.193793120725e-01
4.259033200000e+01 -9.496623721414e-02 -9.361565050286e-02 -4.203718232787e-02 -1.801541578368e-02 -8.250888350607e-01 6.464855196762e-01 4.770768136424e-01 -5.941269610654e-01 -4.339982027618e-03 2.346195001269e-02 4.537926465644e-01 -6.093477540376e-02 6.043559229009e-01 -3.186679304550e-01 -2.571808100429e-01 5.069716272076e-01
4.263916000000e+01 -9.254362570749e-02 -9.133729371755e-02 -4.065998609856e-02 -1.774409996599e-02 -8.115096389731e-01 6.592444200037e-01 4.726158280062e-01 -6.026325621589e-01 -4.331302550328e-03 2.346985031324e-02 4.429060616230e-01 -5.884650803510e-02 6.127731786837e-01 -3.164321367769e-01 -2.522557111185e-01 4.947188736551e-01
4.268798800000e+01 -9.014829215565e-02 -8.908884755086e-02 -3.930253091715e-02 -1.747265645181e-02 -7.977771225441e-01 6.717561685916e-01 4.679368534034e-01 -6.111632382130e-01 -4.322303997061e-03 2.347746057680e-02 4.321580267426e-01 -5.679972081236e-02 6.210962829548e-01 -3.142286524573e-01 -2.473509801890e-01 4.826234480921e-01
4.273681600000e+01 -8.778077189211e-02 -8.687071822222e-02 -3.796502438634e-02 -1.720121675347e-02 -7.838947419674e-01 6.840206173476e-01 4.630358656448e-01 -6.197130518395e-01 -4.312987832728e-03 2.348478103672e-02 4.215505529380e-01 -5.479448820896e-02 6.293233246751e-01 -3.120577677073e-01 -2.424687202771e-01 4.706875993428e-01
4.278564500000e+01 -8.544152542475e-02 -8.468323969524e-02 -3.664762966243e-02 -1.692990483039e-02 -7.698655721717e-01 6.960378433445e-01 4.579089600049e-01 -6.282760428590e-01 -4.303355368509e-03 2.349181209646e-02 4.110853079127e-01 -5.283081271710e-02 6.374526520185e-01 -3.099197076226e-01 -2.376108863948e-01 4.589131895932e-01
4.283447300000e+01 -8.313112950818e-02 -8.252685241871e-02 -3.535057312361e-02 -1.665885923706e-02 -7.556934643237e-01 7.078071647262e-01 4.525527835713e-01 -6.368455365063e-01 -4.293408557036e-03 2.349855375942e-02 4.007644711824e-01 -5.090878542104e-02 6.454822084649e-01 -3.078148067400e-01 -2.327796818708e-01 4.473026564445e-01
